sudo menu-config
uname -a
sudo apt-update
sudo apt-get update
sudo apt-get upgrade
uname -a
sudo apt-get install git
sudo clone https://github.com/LinuxCNC/linuxcnc.git linuxcnc-source
sudo git clone https://github.com/LinuxCNC/linuxcnc.git linuxcnc-source
cd linuxcnc-source
cd /src
cd src
./autogen.sh
sudo ./autogen.sh
sudo ./configure --with-realtime=uspace
sudo apt-get install libmodbus-dev
sudo ./configure --with-realtime=uspace
sudo apt-get install libusb-1.0-0-dev
sudo ./configure --with-realtime=uspace
sudo apt install yapps2
sudo ./configure --with-realtime=uspace
sudo apt install intltool-extract
sudo apt install intltoolintltool
sudo ./configure --with-realtime=uspace
sudo apt install libboost
sudo apt install boost
sudo apt install libboost-all-dev
sudo ./configure --with-realtime=uspace
sudo apt install python-tk
sudo apt install python3-tk
sudo apt-get install tcl-dev tk-dev
sudo ./configure --with-realtime=uspace
sudo --enabl
sudo apt-get install libreadline-gplv2-dev
sudo ./configure --with-realtime=uspace --enable-non-distributable=yes
sudo apt-get install libreadline-dev
sudo ./configure --with-realtime=uspace
sudo apt-get install libreadline-gplv2-dev
sudo apt-get install libeditreadline-dev
sudo ./configure --with-realtime=uspace
sudo apt-get install libxmu-dev
sudo ./configure --with-realtime=uspace
make
sudo make
sudo apt-get install asciidoc
sudo ./configure --with-realtime=uspace
sudo make
sudo make setuid
linuxcnc
./linuxcnc
dmesg
./linuxcnc
ls -l /home/cnc/linuxcnc-source/bin/rtapi_app
chmod +x /home/cnc/linuxcnc-source/bin/rtapi_app
sudo chmod +x /home/cnc/linuxcnc-source/bin/rtapi_app
sudo ./linuxcnc
uname -r
uname -a
sudo env RTAPI_UID=`id -u` RTAPI_FIFO_PATH=$HOME/.rtapi_fifo ./linuxcnc
ls -ld /tmp
sudo rm -rf /tmp/tmp_qtplasmac_comp.hal
sudo env RTAPI_UID=`id -u` RTAPI_FIFO_PATH=$HOME/.rtapi_fifo ./linuxcnc
sudo su
sudo chmod 777 /tmp
sudo usermod -aG root $USER
sudo ./linuxcnc
sudo ./linuxcncexit
exit
sudo -i
sudo ./linuxcnc
./linuxcnc
groups $USER
sudo reboot
./linuxcnc
sudo apt-get install python3-gst-1.0
sudo apt-get update
sudo apt-get upgrade
sudo apt-get install gstreamer1.0-plugins-base gstreamer1.0-plugins-good
./linuxcnc
uname -a
./linuxcnc
cd
cp -r /home/cnc/Desktop /home/cnc/linuxcnc-source/configs/
sudo cp -r /home/cnc/Desktop /home/cnc/linuxcnc-source/configs/
sudo remove ./Desktop
sudo rm -r ./Desktop
cd
sudo cp -r /home/cnc/Desktop/TrialBot /home/cnc/linuxcnc-source/configs/
sudo rm -r ./TrialBot
./linuxcnc
sudo shutdown
sudo chmod 777 stepconf.py
cp /home/cnc/linuxcnc-source/linuxcnc-wizard.gif /home/cnc/linuxcnc-source/share/linuxcnc/stepconf/
sudo cp /home/cnc/linuxcnc-source/linuxcnc-wizard.gif /home/cnc/linuxcnc-source/share/linuxcnc/stepconf/
./linuxcnc
./realtime
cd
cd /home/cnc/linuxcnc-source/src/emc/usr_intf/stepconf/../share/linuxcnc/
ls
sudo cd /home/cnc/linuxcnc-source/linuxcnc-wizard.gif /home/cnc/linuxcnc-source/src/emc/usr_intf/stepconf/
sudo cp /home/cnc/linuxcnc-source/linuxcnc-wizard.gif /home/cnc/linuxcnc-source/src/emc/usr_intf/stepconf/
cd /home/cnc/linuxcnc-source/src/emc/usr_intf/stepconf/../share/linuxcnc/
cd /home/cnc/linuxcnc-source/src/emc/usr_intf/stepconf
cd ../share/linuxcnc/
cd ./share/linuxcnc/
cd ..\share/linuxcnc/
cd .../share/linuxcnc/
cd ..../share/linuxcnc/
cd ...../share/linuxcnc/
cd ....../share/linuxcnc/
cd ....../share/linuxcnc
cd ..../share/linuxcnc
cd .../share/linuxcnc
cd ./share/linuxcnc
cd ./
cd ../
cd /linuxcnc-source
cd ./linuxcnc-source
ls
cd ..../share
cd ...../share
cd ....../share
cd ......./share
cd ......../share
cd ........./share
cd ./share
cd ./
cd ../
cd /stepconf
cd ./stepconf
ls
cd ../../../
../
cd ../
./stepconf.py
stepconf.py
./stepconf.py
python stepconf.py 
python3 stepconf.py 
pip install pages
pip3 install pages
sudo install pip
sudo apt install pip
pip install pages
sudo apt install pipx
pipx install pages
python3 stepconf.py 
pipx ensurepath
./stepconf.py
python3 stepconf.py 
source ~/.bashrc
python3 stepconf.py 
nano ~/.bashrc
echo PATH
nano export PATH="$HOME/.local/bin:$PATH"PATH
nano PATH="$HOME/.local/bin:$PATH"
export PATH="$HOME/.local/bin:$PATH"
nano ~/.bashrc
python3 stepconf.py 
source ~/.bashrc
python3 stepconf.py
source ~/.local/pipx/venvs/pages/bin/activate
python3 stepconf.py
exit
pipx list
nano ~/.bashrc
python3 stepconf.py
source ~/.bashrc
python3 stepconf.py
sudo pip install pages --break-system-packages
python3 stepconf.py
sudo reboot
python3 stepconf.py
sudo install xfce4-screenshooter
sudo apt install xfce4-screenshooter
python3 stepconf.py
./linuxcnc
./latency-test
uname -a
uname -r
./runtests
sudo ./runtests
sudo menu-config
sudo reboot
sudo menu-config
./torture.py
./realtime
./realtime start
./realtime stop
./linuxcnc
dmesg | grep -i "realtime"
cd
dmesg | grep -i "realtime"
uname -r
sudo chmod a+w parport
./linuxcnc
sudo chmod a+w /configs
sudo chmod a+w ./configs
./linuxcnc
sudo ./linuxcnc
sudo reboot
sudo chmod a+w /rtlib
sudo chmod a+w ./rtlib
sudo ./linuxcnc
./linuxcnc
sudo chmod 777 qtplasmac_4x3_handler.py
exit
linuxcnc
./linuxcnc
sudo ./linuxcnc
sudo ./ linuxcnc --uid=<cnc>
sudo ./linuxcnc --uid=<cnc>
./linuxcnc --uid=<cnc>
id -u <cnc>
cd
id -u <cnc>
id -u cnc
./linuxcnc --uid=1000
cd /Desktop./linuxcnc --uid=1000
cd /Desktop
cd ./Desktop
sudo ./linuxcnc --uid=1000
./linuxcnc --uid=1000
sudo -u 1000 linuxcnc
sudo -u cnc linuxcnc
sudo -u cnc ./linuxcnc
./linuxcnc
uname -a
uname -r
sudo nano cmdline.txt
sudo reboot
sudo apt update
sudo apt upgrade
uname -a
./linuxcnc
cd ./Desktop
./linuxcnc
sudo menu-config
cd
cd ./boot/broadcom/
uname -a
uname -r
sudo nano cmdline.txt
sudo reboot
uname -a
./linuxcnc
sudo chmod a+w dialogMixin.py
sudo chmod a+w dialogMixin.pycd
cd
cd ./Desktop
./linuxcnc
exit
sudo chmod a+w limits.d
sudo chmod a+w qtplasmac_gcode.py
cd
unlimit -l
ulimit -l
cd ./Desktop
./linuxcnc
sudo chmod a+w qtplasmac_gcode
cd
cd ./Desktop
./linuxcnc
vcgencmd measure_temp
sudo apt install vcgencmd
pip --version
sudo pip install git+https://github.com/nicmcd/vcgencmd.git
sudo pip-3.2 install git+https://github.com/nicmcd/vcgencmd.git
./linuxcnc
SUDO CHMOD A+W m_files
sudo chmod a+w m_files
./linuxcnc
cd ./Desktop
cd
cd ./Desktop
./linuxcnc
sudo apt install Notepad++
exit
./linuxcnc
sudo menu-config
cd ./Desktop
./linuxcnc
cd ./Desktop
./linuxcnc
exit
exit
tet.py
./tet.py
sudo ./tet.py
sudo python3 ./tet.py
sudo chmod +x M100.py
sudo python3 ./tet.py
cd ./:../../nc_files
cd ./:../../nc_files
cd ./../
cd ./
cd ./../
cd ./:../
cd ./../../nc_files
ipconfig
ip config
ip -a
ping 150.162.23.22
ifconfig
if config
sudo ifconfig
ping 150.162.23.22 -s 1000
ping 150.162.23.22 -s 65500
ping 150.162.23.254 -s 65500
ping 150.162.23.157 -s 6550[A
ping 150.162.23.157 -s 64
ping 150.162.23.22 -s 65500
ping 150.162.23.22 
sudo menu-config
ls -l
sudo menu-config
ls -l
sudo menu-config
sudo vcdbg log msg
sudo menu-config
cd
ls -l /dev/serial*
sudo menu-config
sudo reboot
sudo menu-config
ls -l /dev/serial*
pip3 install pyserial
pip3 install python3-pyserial
sudo apt install python3-serial
python3 -c "import serial; print(serial.__version__)"
sudo python3 rs232.py
sudo usermod -aG dialout $(whoami)
sudo python3 rs232.py
cd
ls /usr/bin/env
ls /usr/bin/env python3
sudo python3 rs232.py
cd
sudo python3 rs232.py
python3 -m pip check
exit
linuxcnc -l debug.log
linuxcnc
chmod +x /home/cnc/linuxcnc-source/nc_files/plasmac/m_files/rs232.py
cd
python3
ls /home/cnc/linuxcnc/nc_files/python/remap.py
python3
exit[; exit
exit
python3
exit
python3
sudo menu-config
sudo reboot
python3
sudo menu-config
python3
sudo apt update
sudo apt upgrade
uname -r
uname -a
apt search raspberrypi-kernel
sudo apt search raspberrypi-kernel
sudo apt update
sudo apt upgrade
sudo apt search raspberrypi-kernel
apt show raspberrypi-kernel
apt show raspberrypi
sudo apt search raspberrypi-kernel
sudo apt show raspberrypi-kernel
apt-cache search linux-image | grep rt
uname -a
sudo menu-config
sudo raspi-config
sudo mneu-config
sudo menu-config
sudo reboot
sudo menu-config
lsmod | grep i2c 
ls /dev
ls /dev/i2c-*
ls /dev/tty*
sudo menu-config
ls /dev/i2c-*
ls /dev/i2c
ls /dev/
pinctrl get
ls /dev/i2*
sudo gpio readall
lsmod | grep i2c 
sudo modprobe i2c-dev
sudo modprobe i2c-bcm2712
ls /lib/modules/6.1.61-rt15
sudo i2cdetect -y 1
sudo chmod 777 qtplasmac_handler
sudo chmod 777 qtplasmac_handler.py
sudo menu-config
sudo nano /boot/firmware/config.txt
sudo menu-config
sudo i2cdetect -y 1
sudo modprobe i2c-dev
lsmod | grep i2c 
i2cdetect
sudo i2cdetect -y
sudo i2cdetect -l
sudo i2cdetect -y 1
i2c halp
i2c -help
sudo i2cdetect
i2cget
i2cget 55 ]i
sudo i2ctools
sudo apt install i2c-tools
i2cget -y
i2c-tools
sudo i2cget
sudo i2cget -y 1 0x55 0 w
sudo apt install piclone
exit
git branch
pwd
git status
git config --global --add safe.directory /home/cnc/linuxcnc-source
git status
git branch
git restore
git restore .
sudo git restore .
git branch
git status
sudo chmod 777 qtplasmac_handler.py
sudo chmod 777 plasmac.comp
exit
sudo chmod 777 qtplasmac_handler.py
make -j4
sudo make -j4
sudo make setuid
sudo halcompile --compile plasmac.comp
sudo make clean
sudo make -j4
sudo make setuid
uname -a
sudo chmod a+w plasmac
sudo chmod a+w images
sudo chmod a+w qtplasmac
sudo chmod a+w star.py
sudo chmod a+w star.py
sudo menu-config
sudo make clean
sudo make
sudo make setuid
sudo make clean
sudo make -j4
sudo make clean
sudo make -j4
sudo make setuid
sudo make plasmac.comp
sudo make ./hal/components/plasmac.comp
sudo make /hal/components/plasmac.comp
sudo make -j4
sudo make setuid
sudo make clean
sudo make -j4
sudo make setuid
sudo make /hal/components/plasmac.comp
sudo make clean
sudo make -j4
sudo make setuid
sudo make /hal/components/plasmac.comp
sudo make
sudo make clean
sudo make -j4
sudo make clean
sudo make -j4
sudo make setuid
sudo make -j4
sudo chmod a+w plasmac.comp
sudo chmod a+r plasmac.comp
sudo chmod 777 plasmac.comp
sudo chmod 777 /components
sudo chmod 777 components
sudo make -j4
inet
ifconfig
menu confiug
menu config
sudo  menu-config
sch cnc@raspberrypi:/home/cnc/linuxcnc-source/src/hal/components/plasmac.comp
scp cnc@raspberrypi:/home/cnc/linuxcnc-source/src/hal/components/plasmac.comp /home/cnc/Documentos
scp cnc@raspberrypi:/home/cnc/linuxcnc-source/src/hal/components/plasmac.comp /home/
scp cnc@raspberrypi:/home/cnc/linuxcnc-source/src/hal/components/plasmac.comp /home/cnc/
scp cnc@raspberrypi:/home/cnc/linuxcnc-source/src/hal/components/plasmac.comp /home/cnc/Documentos/
scp cnc@raspberrypi:/home/cnc/linuxcnc-source/src/hal/components/plasmac.comp /home/cnc/Documentos
scp cnc@raspberrypi:/home/cnc/linuxcnc-source/src/hal/components/plasmac.comp /home/cnc/Documents
scp /home/cnc/linuxcnc-source/src/hal/components/plasmac.comp cnc@cnc:/home/cnc/Documentos
exit
sudo make -j4
sudo apt install cscope
sudo cscope -Rb
sudo cscope -d
sudo make -j4
sudo cscope -d
sudo make -j4
sudo cscope -d
sudo chmod a+w axis.c
sudo chmod a+w axis.h
sudo make -j4
halcmd show net
halcmd show pin hal_gpio.PIN29-in
sudo halcmd show net
sudo halcmd show 
halcmd show param
sudo make -j4
lsmod | gprep i2c
ls /dev/i2c
ls /dev
sudo menu-configt
sudo menu-config
ls /dev/i2c-*
ls /dev/
sudo apt install -y i2c-tools
i2c detect
i2cdetect -y 1
sudo i2cdetect -y 1
sudo i2cdetect -y 0
sudo i2cdetect -y 
sudo i2cdetect -f
sudo i2cdetect 
sudo i2cdetect 1
sudo i2cdetect 0
sudo menu-config
sudo reboot
sudo i2cdetect 1
sudo i2cdetect -y 1
ls /dev/i2c-*
ls /dev/
lsmod | grep i2c
sudo menu-config
sudo nano /boot/config.txt
sudo menu-config
sudo reboot
ls /dev/i2c-*
sudo i2cdetect -y -q 1
sudo i2cdetect -y -q 0
sudo modprobe i2c_bcm2835
sudo modprobe i2c_dev
cd
ls /dev/i2c-*
sudo i2cdetect -y 1
sudo i2cset -y 1 0x55 1
sudo i2cset -y 1 0x55 0
sudo i2cset -y 1 0x55 3
sudo i2cset -y 1 0x55 1
./programa2
gcc Programa1.c -o programa1
gcc Programa2.c -o programa2
./programa1
sudo menu-config
sudo apt install code
clear
ls /dev
gpiodetect
gpiochip0
gpioinfo
sudo apt update
sudo apt upgrade
./programa2
clear
./programa2
gcc Programa2.c -o programa2
./programa2
gcc Programa1.c -o programa1
sudo apt install libgpiod-dev
ls /usr/include/gpiod.h
gcc -o programa1 programa1.c -lgpiod
gcc -o programa1 Programa1.c -lgpiod
gcc Programa2.c -o programa2
./programa1
gcc -o programa1 Programa1.c -lgpiod
./programa1
gcc -o programa1 Programa1.c -lgpiod
clear
./programa1
sudo apt install gparted-y
sudo apt install gparted -y
sudo ls /dev/i2c-*
sudo ls /dev/i2c
sudo ls /dev/
sudo i2cdete4ct
sudo i2cdetect
sudo i2cdetect -y 1
sudo menu-config
hostname -I
ls /dev/i2c-*
ls: cannot access '/dev/i2c-*': No such file or directory
sudo modprobe i2c-dev
ls /dev/i2c-*
sudo i2cdetect -y 1
sudo i2cset -y 1 0x55 0x00 0x01
sudo i2cget -y 1 0x55 0x00
sudo i2cset -y 1 0x55 0x00 0x15
sudo i2cset -y 1 0x55 0x00 0x20
sudo i2cset -y 1 0x55 0
sudo i2cget -y 1 0x55 0x00 
sudo i2cget -y 1 0x55 0x01
sudo i2cget -y 1 0x55 0x02
sudo i2cget -y 1 0x55 0x1
sudo i2cget -y 1 0x55 w
sudo i2cget -y 1 0x55
sudo i2cget -y 1 0x55 w
sudo i2cget -y 1 0x55 0 w
sudo apt-get install libi2c-dev
ls
cd Desktop
os
ls
sudo nano i2c_read.c
clear
ls
sudo nano i2c_read.c
gcc -o i2c_read i2c_read.c -lgpiod
sudo nano i2c_read.c
gcc -o i2c_read i2c_read.c -lgpiod
./read_i2c_gpiod
./i2c_read
ls /dev/i2c-1
sudo cat /dev/i2c-1
sudo systemctl restart i2c
ls /dev/i2c-*
sudo i2cdetect -y 1
ls /dev/i2c-*
gcc -o i2c_read i2c_read.c -lgpiod
exit
./i2c_read
ls /dev/i2c-*
ls /dev/i2c-1
sudo ./i2c_read
ls /dev
sudo ./i2c_read
sudo i2cdetect -y 1
sudo i2cget -y 1 0x55
sudo modprobe i2c-dev
sudo i2cdetect -y 1
sudo i2cget -y 1 0x55
sudo i2cget -y 1 0x55 0 w
gcc -o i2c_read i2c_read.c -lgpiod
sudo ./i2c_read
gcc -o i2c_read i2c_read.c -lgpiod
sudo ./i2c_read
gcc -o i2c_read i2c_read.c -lgpiod
sudo ./i2c_read
gcc -o i2c_read i2c_read.c -lgpiod
sudo ./i2c_read
gcc -o i2c_read i2c_read.c -lgpiod
sudo ./i2c_read
gcc -o i2c_read i2c_read.c -lgpiod
sudo ./i2c_read
ls /dev/i2c
ls /dev/i2c-*
ls /dev
gcc -o i2c_read i2c_read.c -lgpiod
ls /dev
sudo ./i2c_read
raspi-gpio
sudo menu-config
hostname -I
sudo ./i2c_read
cd /Desktop
cd Desktop
sudo nano i2c_read.c
cat i2c_read.c
sudo nano i2c_read.c
gcc -o i2c_read i2c_read.c -lgpiod
sudo ./i2c_read
gcc -o i2c_read i2c_read.c -lgpiod
sudo ./i2c_read
gcc -o i2c_read i2c_read.c -lgpiod
sudo ./i2c_read
gcc -o i2c_read i2c_read.c -lgpiod
sudo ./i2c_read
sudo nano i2c_read.c
gcc -o i2c_read i2c_read.c -lgpiod
sudo ./i2c_read
sudo i2cdetect -y 1
sudo i2cget -y 1 0x55 0 w
sudo nano i2c_read.c
gcc -o i2c_read i2c_read.c -lgpiod
sudo ./i2c_read
sudo nano i2c_read.c
gcc -o i2c_read i2c_read.c -lgpiod
sudo ./i2c_read
sudo nano i2c_read.c
gcc -o i2c_read i2c_read.c -lgpiod
sudo ./i2c_read
gcc -o i2c_read i2c_read.c -lgpiod
sudo nano i2c_read.c
gcc -o i2c_read i2c_read.c -lgpiod
sudo ./i2c_read
sudo nano i2c_read.c
gcc -o i2c_read i2c_read.c -lgpiod
sudo ./i2c_read
cd Desktop
sudo ./i2c_read
sudo modprobe i2c-dev
sudo ./i2c_read
sudo i2cset -y 1 0x55 0 10 2 50
sudo i2cset -y 1 0x55 0 10 2
sudo i2cset -y 1 0x55 0 10 2 50 -i
sudo i2cset -y -i 1 0x55 0 10 2 50 -i
sudo i2cset -y 1 0x55 0x00 0x80 0x00 i
sudo i2cset -y 1 0x55 0x00 0x0F 0x0A 0x20 i
sudo i2cset -y 1 0x55 10 2 25 i
sudo i2cset -y 1 0x55 15 2 25 i
sudo i2cset -y 1 0x55 1 2 25 i
sudo i2cset -y 1 0x55 15 2 25 i
sudo i2cset -y 1 0x55 1.1 2 25 i
sudo i2cset -y 1 0x55 1,1 2 25 i
clear
exit
hostname -I
ls
git commit
sudo git commit
sudo git add .
sudo git commit -m "Versão estável em operação"
git config --list
git remote -v
git remote set-url origin https://github.com/Metronix/linuxcnc.git
sudo git remote set-url origin https://github.com/Metronix/linuxcnc.git
git remote -v
git fetch origin
sudo git fetch origin
sudo git commit -m "Versão estável em operação"
git config --global pedrof.bender@hotmail.com
git config --global user.mail pedrof.bender@hotmail.com
git config --global user.name Metronix
git remote -v
git config --list
sudo git commit -m "Versão estável em operação"
git commit -m "Versão estável em operação"
sudo chown -R cnc:cnc /home/cnc/linuxcnc-source
git commit -m "Versão estável em operação"
sudo git -c user.name="Metronix" -c user.email="pedrof.bender@hotmail.com" commit -m "Versão estável em operação"
git push origin main
git push origin master
ssh-keygen -t ed25519 -C pedrof.bender@hotmail.com
$ eval "$(ssh-agent -s)"
ssh-add ~/.ssh/id_ed25519
cat ~/.ssh/id_ed25519.pub
shh -T git@github.com
ssh -T git@github.com
set remote set-url origin git@github.com:Metronix/linuxcnc.git
git remote -v
git remote set-url origin git@github.com:Metronix/linuxcnc.git
03
git remote -v
git add .
git commit
git commit -m "Versão estável"
git push origin master
git remote -v
git config --list
git config --global user.email "pedrof.bender@hotmail.com"
git config --list
git config --local -l
git commit -m "Versão estável"
sudo git commit -m "Versão estável"
git commit -m "Versão estável"
sudo chmod -R u+rw /home/cnc/linuxcnc-source
git commit -m "Versão estável"
sudo chmod 777 /home/cnc/linuxcnc-source
git commit -m "Versão estável"
sudo chown -R cnc:cnc /home/cnc/linuxcnc-source
sudo chmod -R u+rw /home/cnc/linuxcnc-source
sudo find /home/cnc/linuxcnc-source -type d -exec chmod u+rwx {} +
git commit -m "Versão estável"
cd desktop
cd Desktop
./linuxcnc
clear
cd Desktop
./i2c_read
sudo nano /etc/modules
sudo nano /boot/config
sudo nano /boot/config.txt
sudo nano /boot/broadcom/config.txt
sudo reboot
htop
vcgencmd measure_temp
htop
./i2c_read
cd Desktop
./i2c_read
vcgencmd measure_temp
i2cset -y 1 0x55 -15 2 25 i 
sudo i2cset -y 1 0x55 -15 2 25 i 
sudo i2cset -y 1 0x55 14 2 25 i 
sudo i2cset -y 1 0x55 255 2 25 i 
sudo i2cset -y 1 0x55 128 2 25 i 
sudo i2cset -y 1 0x55 101 2 25 i 
sudo i2cset -y 1 0x55 1
sudo i2cset -y 1 0x55 0
sudo i2cset -y 1 0x55 2
sudo i2cset -y 1 0x55 1
sudo i2cset -y 1 0x55 3
sudo i2cset -y 1 0x55 1
sudo i2cset -y 1 0x55 3
sudo i2cset -y 1 0x55 14 2 25 i 
exit
sudo i2cset -y 1 0x55 15 02 20 25 i
sudo i2cset -y 1 0x55 15 00 20 25 i
sudo i2cset -y 1 0x55  0 15 20 25 i
sudo i2cset -y 1 0x55 10 15 20 25 i
sudo i2cset -y 1 0x55 15 15 20 25 i
sudo i2cset -y 1 0x55 0 0 20 25 i
sudo i2cset -y 1 0x55 00 00 20 25 i
sudo i2cset -y 1 0x55 01 01 20 25 i
sudo i2cset -y 1 0x55 130 20 25 i
sudo i2cset -y 1 0x55 13 20 25 i
sudo i2cset -y 1 0x55 13 20 20 25 i
sudo i2cset -y 1 0x55 1030 20 25 i
sudo i2cset -y 1 0x55 0x0C 0x02 20 25 i
sudo i2cset -y 1 0x55 0x0C 0x02 0x15 25 i
sudo i2cset -y 1 0x55 0x0C 0x02 0x15 0x25 i
sudo i2cset -y 1 0x55 13 20 20 25 i
sudo i2cset -y 1 0x55 00 20 20 25 i
sudo i2cset -y 1 0x55 00 100 20 25 i
sudo i2cset -y 1 0x55 00 200 20 25 i
sudo i2cset -y 1 0x55 00 100 20 25 i
sudo i2cset -y 1 0x55 01 00 20 25 i
sudo i2cset -y 1 0x55 10 00 20 25 i
sudo i2cset -y 1 0x55 09 00 20 25 i
sudo i2cset -y 1 0x55 01 00 20 25 i
sudo i2cset -y 1 0x55 9 00 20 25 i
sudo i2cset -y 1 0x55 8 00 20 25 i
sudo i2cset -y 1 0x55 8 01 20 25 i
sudo i2cset -y 1 0x55 8 10 20 25 i
sudo i2cset -y 1 0x55 8 100 20 25 i
sudo i2cset -y 1 0x55 8 126 20 25 i
sudo i2cset -y 1 0x55 9 126 20 25 i
sudo i2cset -y 1 0x55 9 100 20 25 i
sudo i2cget -y 1 0x55 0 w
sudo i2cset -y 1 0x55 8 10 20 25 i
sudo i2cset -y 1 0x55 8 11 20 25 i
sudo i2cset -y 1 0x55 8 12 20 25 i
sudo i2cset -y 1 0x55 8 100 20 25 i
sudo i2cset -y 1 0x55 10 0 20 25 i
sudo i2cset -y 1 0x55 10 00 20 25 i
sudo i2cset -y 1 0x55 10 01 20 25 i
sudo i2cset -y 1 0x55 05 01 20 25 i
sudo i2cget -y 1 0x55 0 w
sudo menu-config
ifconfig
sudo ifconfig
sudo i2cset -y 1 0x55 15 03 20 25 i
sudo i2cset -y 1 0x55 50 83 20 25 i
sudo i2cset -y 1 0x55 0xff 0xf6 20 25 i
sudo i2cget -y 1 0x55 0 w
i2cget help
sudo i2cget help
sudo i2cget -y 1 0x55 1
sudo i2cget -y 1 0x55 3
sudo i2cget -y 1 0x55 3 w
sudo i2cset -y 1 0x55 0x10 0x08 20 25 i
vcgencmd measure_temp
sudo i2cset -y 1 0x55 0x10 0x08 20 25 i
vcgencmd measure_temp
cd Desktop
cat i2c_read.c
sudo nano i2c_read.c
exit
htop
vcgencmd measure_temp
sudo make
sudo make setuid
sudo make
sudo make setuid
./programa2
clear
./programa1
htop
sudo make
sudo make setuid

sudo ifconfig
gcc i2c_read.c -o i2c_read
./i2c_read
gcc i2c_read.c -o i2c_read
./i2c_read
gcc i2c_read.c -o i2c_read
./i2c_read
gcc i2c_read.c -o i2c_read
./i2c_read
gcc i2c_read.c -o i2c_read
./i2c_read
gcc i2c_read.c -o i2c_read
./i2c_read
gcc i2c_read.c -o i2c_read
./i2c_read
sudo i2cset -y 1 0x55 0x01
sudo i2cset -y 1 0x55 01
sudo i2cset -y 1 0x55 0 1
sudo i2cset -y 1 0x55 0 1 i
sudo i2cset -y -a 1 0x55 0x04 231 20 25 i
sudo i2cset -y  1 0x55 0x04 231 20 25 i
sudo i2cset -y  1 0x55 0x04 220 20 25 i
sudo i2cset -y  1 0x55 0x05 220 20 25 i
sudo i2cset -y 1 0x55 2 i
sudo i2cset -y -a 1 0x55 2 i
sudo i2cset -y -a 1 0x55 2
sudo i2cset -y -a 1 0x55 1
sudo i2cset -y  1 0x55 0x08 225 20 25 i
sudo i2cset -y  1 0x55 0x02 225 20 25 i
./i2c_read
gcc i2c_read.c -o i2c_read
./i2c_read
gcc i2c_read.c -o i2c_read
./i2c_read
gcc i2c_read.c -o i2c_read
./i2c_read
sudo i2cset -y  1 0x55 1
sudo i2cset -y  1 0x55 2
sudo i2cset -y  1 0x55 3
sudo i2cget -y 1 0x55 w
sudo i2cget -y 1 0x55 i
sudo i2cget -y 1 0x55 3 i
sudo i2cset -y  1 0x55 0x02 225 20 25 i
sudo i2cget -y 1 0x55 i
gcc i2c_read.c -o i2c_read
./i2c_read
sudo i2cset -y  1 0x55 0x04 225 20 25 i
sudo i2cset -y  1 0x55 0x10 225 20 25 i
sudo i2cset -y  1 0x55 0x20 225 20 25 i
sudo i2cset -y  1 0x55 0x21 225 20 25 i
sudo i2cset -y  1 0x55 1
sudo i2cset -y  1 0x55 2
sudo i2cset -y  1 0x55 1
sudo i2cset -y  1 0x55 2
sudo i2cset -y  1 0x55 3
sudo i2cget -y 1 0x55 3 i
sudo i2cset -y  1 0x55 1
sudo i2cget -y 1 0x55 2 i
sudo i2cget -y 1 0x55 4 i
sudo i2cget -y 1 0x55 4 b
sudo i2cget -y 1 0x55 4 w
sudo i2cget -y 1 0x55 3 w
sudo i2cget -y 1 0x55 3 i
sudo i2cset -y 1 0x55 0x10 0x08 20 25 i
sudo i2cset -y 1 0x55 0x25 0x08 20 25 i
sudo i2cset -y 1 0x55 10 08 20 25 i
sudo i2cset -y 1 0x55 50 83 20 25 i
sudo i2cset -y 1 0x55 10 83 20 25 i
sudo i2cset -y 1 0x55 10 08 20 25 i
sudo i2cset -y 1 0x55 10 12 20 25 i
sudo i2cset -y 1 0x55 10 10 20 25 i
sudo i2cset -y 1 0x55 10 9 20 25 i
sudo i2cset -y 1 0x55 09 9 20 25 i
sudo i2cset -y 1 0x55 0 09 9 20 25 i
sudo i2cset -y 1 0x55 10 09 20 25 i
sudo i2cset -y 1 0x55 11 09 20 25 i
sudo i2cset -y 1 0x55 10 12 20 25 i
sudo i2cset -y 1 0x55 11 09 20 25 i
sudo i2cset -y 1 0x55 10 12 20 25 i
sudo i2cset -y 1 0x55 12 00 20 25 i
sudo i2cset -y 1 0x55 0x04 0xB0  20 25 i
sudo i2cset -y 1 0x55 0x04 0xB1 20 25 i
sudo i2cset -y 1 0x55 0x04 176 20 25 i
sudo i2cset -y 1 0x55 04 176 20 25 i
sudo i2cset -y 1 0x55 00 176 20 25 i
sudo i2cset -y 1 0x55 10 05 20 25 i
sudo i2cset -y 1 0x55 09 05 20 25 i
sudo i2cset -y 1 0x55 0x09 05 20 25 i
sudo i2cset -y 1 0x55 0x04 05 20 25 i
sudo i2cset -y -a 1 0x55 0x04 05 20 25 i
sudo i2cset -y -a 1 0x55 04 05 20 25 i
sudo i2cset -y -a 1 0x55 05 05 20 25 i
sudo i2cset -y -a 1 0x55 04 176 20 25 i
sudo i2cset -y -a 1 0x55 04 128 20 25 i
sudo i2cset -y -a 1 0x55 04 126 20 25 i
sudo i2cset -y -a 1 0x55 05 100 20 25 i
sudo i2cset -y -a 1 0x55 05 220 20 25 i
sudo i2cset -y -a 1 0x55 05 1 20 25 i
./i2c_read
gcc i2c_read.c -o i2c_read
./i2c_read
./i2c_read]
./i2c_read
exit
gcc i2c_read.c -o i2c_read
./i2c_read
sudo i2cset -y -a 1 0x55 1
gcc i2c_read.c -o i2c_read
sudo i2cset -y -a 1 0x55 1
./i2c_read
gcc i2c_read.c -o i2c_read
./i2c_read
gcc i2c_read.c -o i2c_read
./i2c_read
gcc i2c_read.c -o i2c_read
./i2c_read
gcc Programa1.c -o Programa1
ls /dev/gpiochip4
ls /dev
gcc Programa1.c -o Programa1
./Programa1
gcc Programa1.c -o Programa1 -lgpiod
gcc Programa2.c -o Programa2
clear
./Programa2
gcc Programa1.c -o Programa1 -lgpiod
gcc Programa2.c -o Programa2
./Programa2
gcc Programa2.c -o Programa2
./Programa2
gcc Programa2.c -o Programa2
./Programa2
gcc Programa2.c -o Programa2
clear
./Programa2
gcc Programa2.c -o Programa2
./Programa2
clear
gcc Programa2.c -o Programa2
./Programa2
gcc Programa2.c -o Programa2
./Programa2
gcc Programa2.c -o Programa2
./Programa2
./Programa1
gcc Programa1.c -o Programa1 -lgpiod
./Programa1
clear
gcc Programa1.c -o Programa1 -lgpiod
./Programa1
gcc Programa1.c -o Programa1 -lgpiod
./Programa1
clear
gcc Programa1.c -o Programa1 -lgpiod
./Programa1
gcc Programa1.c -o Programa1 -lgpiod
./Programa1
gcc Programa1.c -o Programa1 -lgpiod
./Programa1
gcc Programa1.c -o Programa1 -lgpiod
./Programa1
clear
gcc Programa1.c -o Programa1 -lgpiod
./Programa1
sudo ./Programa1
./Programa1
gcc Programa1.c -o Programa1 -lgpiod
./Programa1
gcc Programa1.c -o Programa1 -lgpiod
gcc Programa2.c -o Programa2
./Programa2
gcc Programa2.c -o Programa2
./Programa2
clear
gcc Programa2.c -o Programa2
./Programa2
gcc Programa2.c -o Programa2
./Programa2
gcc Programa2.c -o Programa2
./Programa2
gcc i2c_read.c -o i2c_read -lgpiod
./i2c_read
gcc i2c_read.c -o i2c_read -lgpio
gcc i2c_read.c -o i2c_read -lgpiod
./i2c_read
gcc i2c_read.c -o i2c_read -lgpiod
./i2c_read
gcc i2c_read.c -o i2c_read -lgpiod
./i2c_read
gcc i2c_read.c -o i2c_read -lgpiod
./i2c_read
gcc i2c_read.c -o i2c_read -lgpiod
./i2c_read
gcc i2c_read.c -o i2c_read -lgpiod
./i2c_read
gcc i2c_read.c -o i2c_read -lgpiod
./i2c_read
gcc i2c_read.c -o i2c_read -lgpiod
./i2c_read
gcc i2c_read.c -o i2c_read -lgpiod
./i2c_read
./Programa2
./Programa1
gcc Programa2.c -o Programa2
gcc Programa1.c -o Programa1 -lgpiod
./Programa1
./Programa2
./Programa1
gcc Programa1.c -o Programa1 -lgpiod
./Programa1
gcc Programa1.c -o Programa1 -lgpiod
./Programa1
gcc Programa2.c -o Programa2
./Programa2
gcc Programa2.c -o Programa2
./Programa2
gcc Programa2.c -o Programa2
./Programa2
gcc Programa2.c -o Programa2
./Programa2
gcc Programa1.c -o Programa1 -lgpiod
./Programa1
gcc Programa1.c -o Programa1 -lgpiod
./Programa1
gcc Programa1.c -o Programa1 -lgpiod
./Programa1
halcompile
halcompile --install
halcompile --compile i2c_rasp.comp
halcompile --install i2c_rasp.comp
halcompile --compile i2c_rasp.comp
sudo halcompile --compile i2c_rasp.comp
halcompile --install i2c_rasp.comp
halcompile --install ddt.comp
halcompile --install i2c_rasp.comp
sudo menu-config
halcompile --install ddt.comp
halcompile --install i2c_rasp.comp
clear
sudo halcompile --install i2c_rasp.comp
clear
sudo halcompile --install i2c_rasp.comp
make
sudo make i2c_read.comp
sudo make
cd ./
cd./../
cd //
cd
sudo make
./halcmd 
./halcompile.py
python3 halcompile.py
python3 halcompile
halcmd show comp
which linuxcnc
which linuxcnc-source
halcompile --install --halprefix=/home/cnc/linuxcnc-source i2c_rasp.comp
halcompile --install i2c_rasp.comp
sudo halcompile --install i2c_rasp.comp
halcmd show path
sudo halcmd show path
halcmd show comp
find /home/cnc/linuxcnc-source -name "*.so"
ls -l /home/cnc/linuxcnc-source/src/hal/components/i2c_rasp.so
loadrt i2c_rasp
halcmd loadrt i2c_rasp
halcmd halcmd show comp
halcmd show comp
halcmd show pin i2c_rasp
halcmd show param i2c_rasp
halcmd addf i2c_rasp.update-thread servo-thread
halcmd addf i2c_rasp servo-thread
cd /linuxcnc_source/src
sudo make
halcmd show pin/param i2c_raspcd
cd
tail -f /var/log/linuxcnc.log
ls -l /dev/i2c-1
groups
halrun
exit
sudo halcompile --install batata.comp
sudo make
sudo halcmd
halrun
exit
halrun
sudo make
sudo halcomand --install i2c_rasp.comp
sudo halcompile --install i2c_rasp.comp
halrun
exit
sudo i2cset -y -a 1 0x55 05 1
sudo i2cset -y -a 1 0x55 0
sudo i2cset -y -a 1 0x55 01
sudo i2cset -y -a 1 0x55 02
sudo i2cset -y -a 1 0x55 03
sudo i2cset -y -a 1 0x55 01
sudo halcompile --install i2c_rasp.comp
sudo make
halrun
exit
sudo halcompile --install i2c_rasp.comp
sudo make
sudo halcompile --install i2c_rasp.comp
sudo make
sudo halcompile --install i2c_rasp.comp
sudo make
cd ..
sudo make
cd /hal
cd ~/hal
cd ./hal
cd ./components
sudo halcompile --install i2c_rasp.comp
halrun
sudo make
sudo halcompile --install non-rt-i2c_rasp.comp
sudo halcompile non-rt-i2c_rasp.comp
sudo halcompile --userspace --install i2c_rasp.comp
halcmd show comp
halrun
sudo halcompile --userspace --install i2c_rasp.comp
halrun
sudo halcompile --userspace --compile i2c_rasp.comp
sudo halcompile --userspace --install i2c_rasp.comp
sudo halcompile --userspace --install non-rt i2c_rasp.comp
sudo halcompile --userspace --install non-rt i2c_rasp.comp
sudo halcompile --userspace i2c_rasp.comp
halrun
sudo make
sudo rm i2c_rasp.so
sudo halcompile --userspace i2c_rasp.comp
halrun
sudo halcompile --userspace --install i2c_rasp.comp
halrun
halcmd show comp
halrun
sudo halcompile --userspace --install i2c_rasp.comp
sudo comp i2c_rasp.comp
sudo halcompile --userspace --install i2c_rasp.comp
halrun
sudo halcompile --install --userspace i2c_rasp.c
sudo halcompile --install --userspace i2c_rasp.comp
sudo halcompile --compile --userspace i2c_rasp.comp
sudo halcompile --install --userspace i2c_rasp.comp
htop
sudo halcompile --install --userspace i2c_rasp.comp
htop
sudo menu-config
sudo nano cmdline.txt
sudo reboot
htop
sudo nano cmdline.txt
sudo reboot
htop
sudo nano cmdline.txt
sudo reboot
htop
ulimit -a
sudo usermod -aG realtime $USER
group
groups
cd /etc/security/limits.conf
sudo nano limits.conf
sudo reboot
ulimit -l
ulimit -r
sudo nano limits.conf
ulimit -r
sudo reboot
ulimit -r
ulimit -l
taskset -c 0 ./linuxcnc
sudo nano cmdline.txt
sudo reboot
uname -a
sudo nano cmdline.txt
sudo reboot
sudo apt update
sudo apt upgrade
sudo reboot
uname -a
git commit
git push
sudo git push
git push
git commit
git commit -a
git add .
git commit
git commit -m "i2c_rasp incluído"
git push
./linuxcnc
unlimit -l
ulimit -l
ls -l
uname -a
./linuxcnc
ls -l
sudo ifconfig
cd linuxcnc-source/vin
cd linuxcnc-source/bin
ls -l
exit
ls -l
./linuxcnc
sudo menu-config
gpioinfo -v
halrun
./linuxcnc
cd home/cnc/linuxcnc/configs/TrialBot/qtvcp/creens
cd home/cnc/linuxcnc/configs/TrialBot/qtvcp/screens
cd /home/cnc/linuxcnc/configs/TrialBot/qtvcp/screens
cd qtplasmac_4x3
nano qtplasmac_4x3_handler.py
scp /linuxcnc/configs/TrialBot/qtvcp/screens/qtplasmac_4x3 /home/cnc/Área de trabalho/Backup/
scp /linuxcnc/configs/TrialBot/qtvcp/screens/qtplasmac_4x3 /qtplasmac_4x3_handler.py /home/cnc/Área de trabalho/Backup/
scp /linuxcnc/configs/TrialBot/qtvcp/screens/qtplasmac_4x3 /qtplasmac_4x3_handler.py /"home/cnc/Área de trabalho/Backup/"
scp /linuxcnc/configs/TrialBot/qtvcp/screens/qtplasmac_4x3 /qtplasmac_4x3_handler.py /"home/cnc/
scp /linuxcnc/configs/TrialBot/qtvcp/screens/qtplasmac_4x3 /qtplasmac_4x3_handler.py /""ome/cnc/Área de trabalho/Backup/"
scp /linuxcnc/configs/TrialBot/qtvcp/screens/qtplasmac_4x3 /qtplasmac_4x3_handler.py /"/hme/cnc/Área de trabalho/Backup/"
scp /linuxcnc/configs/TrialBot/qtvcp/screens/qtplasmac_4x3 /qtplasmac_4x3_handler.py  /home/cnc
scp /linuxcnc/configs/TrialBot/qtvcp/screens/qtplasmac_4x3/qtplasmac_4x3_handler.py  /home/cnc
cp /linuxcnc/configs/TrialBot/qtvcp/screens/qtplasmac_4x3/qtplasmac_4x3_handler.py /home/cnc
cp /home/cnc/linuxcnc/configs/TrialBot/qtvcp/screens/qtplasmac_4x3/qtplasmac_4x3_handler.py /home/cnc
cp /home/cnc/linuxcnc/configs/TrialBot/qtvcp/screens/qtplasmac_4x3/qtplasmac_4x3_handler.py /home/cnc/
scp /home/cnc/linuxcnc/configs/TrialBot/qtvcp/screens/qtplasmac_4x3/qtplasmac_4x3_handler.py /home/cnc/
scp /home/cnc/linuxcnc/configs/TrialBot/qtvcp/screens/qtplasmac_4x3/qtplasmac_4x3_handler.py /home/cnc
exit
sudo ifconfig
./linuxcnc]
./linuxcnc
make -j4
sudo halcompile --install --userspace i2c_rasp.comp
halcompile --install --userspace i2c_rasp.comp
halcompile --compile --userspace i2c_rasp.comp
sudo halcompile --compile --userspace i2c_rasp.comp
sudo halcompile --install --userspace i2c_rasp.comp
sudo halcompile --install  i2c_rasp.comp
sudo usermod -aG root cnc
make -j4
sudo ifconfig
sudo menu-config
sudo halcompile --install  i2c_rasp.comp
cd Desktop
nano Log
nano log
echo $DISPLAY
echo $XDG_SESSION_TYPE
sudo ifconfig
pyuic5 -x AVC.ui -o avc.py
python3 avc.py
pyuic5 -x qtplasmac_4x3.ui -o test.py
./linuxcnc
python3 qtplasmac_4x3_handler.py
pyuic5 -x qtplasmac_4x3.ui -o test.py
./linuxcnc
python3 avc.py
./linuxcnc
htop
cd home/cnc/linuxcnc/configs/TrialBot/qtvcp/screens/qtplasmac_4x3/
cd /home/cnc/linuxcnc/configs/TrialBot/qtvcp/screens/qtplasmac_4x3/
ls
nano avc.py
python3 avc.py
nano Log
ls
sudo nano 
sudo nano cmdline.txt
sudo reboot
htop
gtop
htop
sudo nano cmdline.txt
sudo reboot
./linuxcnc
sudo nano cmdline.txt
sudo reboot
htop
sudo nano cmdline.txt
sudo reboot
sudo apt update
sudo apt upgrade
uname -a
sudo nano cmdline.txt
sudo reboot
htop
./linuxcnc
python3 avc.py
./linuxcnc
python3 avc.py
./linuxcnc
python3 avc.py
pyuic5 -x avc.ui -o test.py
pyuic5 -x AVC.ui -o test.py
python3 test.py
python3 avc.py
./linuxcnc
python3 test.py
./linuxcnc
python3 test.py
./linuxcnc
python3 test.py
python3 avc.py
python3 test.py
pyuic5 -x AVC.ui -o avc_1.py
python3 avc_1.py
./linuxcnc
sudo ifconfig
python3 avc_i2c.py
sudo apt install smbus2
pip install smbus2 pyqt5
pip3 install smbus2 pyqt5
python3 -m pip install smbus2
python3 -m venv venv
source venv/bin/activate
pip install smbus2 pyqt5
pip install smbus2
exit
scp cnc@150.162.23.199: /home/cnc/avc_i2c.py /home/cnc
scp cnc@150.162.23.199:/home/cnc/avc_i2c.py /home/cnc
python3 avc_i2c.py
pip list
python3 -m venv venv
source venv/bin/activate
pip list
pip show smbus2
exit
sudo pip install smbus2
python3 avc_i2c.py
scp cnc@150.162.23.199:/home/cnc/avc_i2c.py /home/cnc
python3 avc_1.py
./linuxcnc
ls /dev/i2c-*
python3 avc_1.py
./linuxcnc
python3 avc_1.py
ls /dev/i2c-*
./linuxcnc
python3 avc_1.py
./linuxcnc
sudo pip install smbus2
sudo apt install python3-smbus2
./linuxcnc
sudo apt install hterm
python3 rs232
python3 rs232.py
python3 avc_1.py
python3 rs232.py
python3 remap.py
python3 rs232.py
./linuxcnc
python3 rs232.py
clear
python3 rs232.py
./linuxcnc
python3 rs232.py
./linuxcnc
clear
./linuxcnc
clear
./linuxcnc
clear
./linuxcnc
clear
./linuxcnc
clear
./linuxcnc
clear
./linuxcnc
clear
./linuxcnc
clear
./linuxcnc
clear
./linuxcnc
clear
./linuxcnc
clear
./linuxcnc
python3
./linuxcnc
clear
./linuxcnc
clear
./linuxcnc
clear
./linuxcnc
clear
./linuxcnc
clear
./linuxcnc
cd Desktop
./linuxcnc
clear
./linuxcnc
./linuxcnc,
./linuxcnc
sudo ifconfig
ps aux | grep linuxcncrsh
telnet localhost 5007
ss -tuln | grep 5007
sudo ufw status
exit
sudo ifconfig
sudo ufw status
sudo apt install ufw
ps aux | grep linuxcncrsh
nc localhost 5007
sudo apt install netcat
sudo apt install netcat-traditional 1.10-47
sudo apt install netcat-traditional
nc localhost 5007
linuxcncrsh --port 5007 --enablepw=EMCTOO
ps aux | grep linuxcncrsh
halcmd show pin | grep iocontrol
clear
./linuxcnc
httclea
clear
ifconfig
sudo ifconfig
sudo menu-config
sudo ifconfig
./linuxcnc,
sudo ifconfig
sudo menu-config
sudo ifconfig
sudo menu-config
sudo ifconfig
sudo menu-config
cd /etc/network/interfaces
nano /etc/network/interfaces
sudo menu-config
sudo ifconfig
sudo menu-config
sudo ifconfig
sudo menu-config
sudo nano /etc/network/interfaces
sudo menu-config
sudo systemctl restart networking
sudo menu-config
sudo ifconfig
sudo menu-config
sudo ifconfig
sudo menu-config
sudo ifconfig
ping www.google.com
sudo ifconfig
sudo menu-config
sudo ifconfig
ip route
ping 8.8.8.8
sudo nano /etc/resolv.conf
sudo menu-config
sudo iptables -L
nmcli device show wlan0
sudo menu-config
sudo systemctl restart networking
sudo ifconfig
ping 8.8.8.8
nmcli device show wlan0
sudo menu-config
sudo nano /etc/resolv.conf
sudo nano /etc/network/interfaces
ip route
sudo reboot
sudo menu-config
sudo systemctl restart networking
sudo menu-config
ip route
nmcli connection up "IoT Labsolda"
sudo menu-config
nmcli connection modify "IoT Labsolda" connection.interface-name wlan0
nmcli connection up "IoT Labsolda"
sudo menu-config
ifconfig
sudo ifconfig
sudo menu-config
sudo systemctl restart networking
sudo nano /etc/network/interfaces
sudo systemctl restart networking
sudo menu-config
sudo nano /etc/network/interfaces
sudo systemctl restart networking
sudo nano /etc/network/interfaces
sudo menu-config
ifconfig
sudo ifconfig
sudo systemctl restart networking
sudo menu-config
sudo ifconfig
./linuxcnc
halcmd show pin | grep iocontrol
./linuxcnc
halcmd show pin | grep iocontrol
./linuxcnc
halcmd show pin | grep iocontrol
./linuxcnc
sudo ifconfig
google-chrome
ping
exit
./linuxcnc
sudo menu-config
hostname -I
./linuxcnc
halcmd
halcmd -i
halcmd --i
halcmd -i
halrun
halrun -U
halrun
./linuxcnc
git status
git add
git add .
git commit -m "AVC e I2C"
git push
git status
